!
! FILE: D:\users\goganessyan\Molex Channels for Eric\15inch_FR408_bottom-routed.s4p
!
# MHz S MA R 50.00
!
! FREQ                  S11                         S12                         S13                         S14
!                       S21                         S22                         S23                         S24
!                       S31                         S32                         S33                         S34
!                       S41                         S42                         S43                         S44                         
!                       
!                  MAG       ANG               MAG       ANG               MAG       ANG               MAG       ANG               
  50.000       0.132870    17.956987       0.933598   -56.880472       0.112256    32.159136       0.017497   163.990374    
               0.934076   -57.500253       0.136215    18.414779       0.017464   163.527151       0.111970    32.023243    
               0.111677    31.809302       0.017840   163.853223       0.136229    17.544835       0.935260   -57.343741    
               0.017743   164.287663       0.111540    32.335548       0.935737   -57.577352       0.138909    18.263748    
            
  75.000       0.152578    -4.119627       0.923201   -85.006727       0.134479     5.577728       0.017566   115.180777    
               0.924306   -85.380124       0.155107    -9.235943       0.017466   114.481533       0.134423     5.312343    
               0.134216     5.270391       0.017428   114.023210       0.155559    -4.420166       0.923800   -85.285884    
               0.017431   114.227316       0.134136     5.483686       0.925088   -85.530198       0.157828    -8.486310    
            
 100.000       0.141874   -27.172170       0.920090  -112.799406       0.129531   -20.355718       0.012688    74.891337    
               0.920512  -113.142319       0.141734   -32.355771       0.012694    74.146418       0.129352   -20.718561    
               0.129152   -20.588919       0.012594    74.367214       0.144161   -28.047458       0.921539  -113.150414    
               0.012668    75.862826       0.128923   -20.595242       0.921500  -113.286274       0.144022   -31.586605    
            
 125.000       0.103096   -49.016755       0.921163  -140.929023       0.096813   -45.781802       0.005026    64.501906    
               0.920808  -141.103347       0.106704   -58.988550       0.004525    61.238492       0.096703   -46.122906    
               0.096439   -45.827129       0.004647    62.083855       0.102959   -50.866696       0.922894  -141.266977    
               0.004985    62.359133       0.096389   -46.041333       0.922481  -141.330324       0.105737   -57.219752    
            
 150.000       0.045405   -60.965810       0.919963  -169.427687       0.040982   -63.674162       0.011024   114.772023    
               0.919790  -169.579224       0.042590   -82.466348       0.011023   117.271958       0.040911   -63.788477    
               0.040818   -63.714757       0.010947   117.721051       0.041830   -65.486594       0.921924  -169.809700    
               0.011010   114.787708       0.040731   -63.804792       0.921665  -169.853183       0.040055   -75.924254    
            
 175.000       0.033732    32.114809       0.911614   161.927946       0.031866    47.438211       0.022502    76.879838    
               0.911587   161.814066       0.026273    43.029437       0.022773    78.426236       0.032157    45.628812    
               0.031763    47.242257       0.022599    78.507992       0.035711    43.396460       0.913178   161.510573    
               0.022411    77.059328       0.032133    45.542163       0.913096   161.460428       0.033415    40.243615    
            
 200.000       0.087040    27.915342       0.896466   133.685940       0.093371    35.072790       0.030215    32.666484    
               0.896609   133.530340       0.084759    28.712352       0.030575    33.358155       0.093480    33.578379    
               0.092882    35.078803       0.030486    33.698530       0.093427    31.397327       0.897455   133.195216    
               0.030158    32.463219       0.093123    33.747825       0.897140   133.154086       0.093439    26.770305    
            
 225.000       0.119396     7.379180       0.880778   105.905398       0.138151    11.248323       0.031530   -10.973204    
               0.881362   105.805478       0.120586     1.923284       0.031878   -10.089557       0.138317     9.797983    
               0.137933    11.346780       0.031804   -10.233577       0.127987     9.080690       0.880302   105.402042    
               0.031312   -10.790343       0.138017     9.961445       0.880154   105.425586       0.129854     1.094901    
            
 250.000       0.123521   -14.162995       0.870473    78.594687       0.159524   -12.918012       0.027358   -47.423863    
               0.870911    78.496191       0.124655   -23.655026       0.027967   -47.052944       0.160062   -14.587306    
               0.160022   -13.081062       0.027807   -46.749372       0.132189   -13.647361       0.867174    78.108528    
               0.027588   -47.509071       0.160150   -14.679628       0.867211    78.040374       0.134257   -24.272932    
            
 275.000       0.100571   -34.355073       0.866599    51.096839       0.157279   -37.204584       0.020974   -74.288939    
               0.866566    51.027582       0.103788   -50.046033       0.021170   -74.221358       0.157956   -39.402351    
               0.156534   -37.506477       0.021162   -74.157637       0.109142   -34.021164       0.868026    50.898038    
               0.020735   -74.790069       0.156968   -39.514611       0.867967    50.863185       0.112807   -50.155372    
            
 300.000       0.056274   -46.977385       0.866887    23.457191       0.127955   -61.712537       0.018042   -74.045419    
               0.867111    23.367331       0.055926   -78.451887       0.018498   -74.390326       0.128100   -64.418114    
               0.127488   -61.673231       0.018332   -74.211681       0.063049   -47.658267       0.868699    22.998781    
               0.017997   -73.693279       0.127621   -64.404079       0.868058    23.024589       0.062697   -78.638993    
            
 325.000       0.027738    21.256279       0.865819    -4.698090       0.076664   -82.298315       0.027439   -85.004913    
               0.865921    -4.763411       0.008070    83.158964       0.027649   -85.965292       0.076521   -86.052155    
               0.076396   -82.319535       0.027626   -85.884950       0.029003    12.471837       0.866854    -5.137585    
               0.027332   -85.255796       0.076252   -85.989536       0.866480    -5.180276       0.005042   100.055555    
            
 350.000       0.083929    39.565751       0.858281   -32.963846       0.022923   -59.665472       0.038971  -116.794538    
               0.858205   -33.036029       0.074903    49.063621       0.039062  -117.367282       0.021174   -66.715468    
               0.022825   -59.870796       0.038938  -117.300624       0.085457    37.061758       0.858921   -33.495425    
               0.038797  -116.798947       0.021062   -66.618032       0.858659   -33.535168       0.075825    50.137791    
            
 375.000       0.135461    20.844271       0.844422   -60.967393       0.056082     6.253770       0.046296  -154.832732    
               0.844820   -60.974352       0.129668    19.971286       0.046320  -155.279602       0.053284     5.942323    
               0.055982     6.302931       0.046190  -155.269906       0.140130    19.308500       0.844917   -61.552445    
               0.046047  -154.746197       0.053119     5.971231       0.844757   -61.536761       0.133412    20.764026    
            
 400.000       0.161637    -1.555577       0.831316   -88.429797       0.101456    -9.292099       0.047418   167.663038    
               0.831962   -88.563707       0.156640    -7.970580       0.047629   167.084570       0.097682    -9.583816    
               0.101081    -9.280430       0.047325   167.283717       0.168076    -2.973078       0.831366   -89.032669    
               0.047422   167.544670       0.097344    -9.647696       0.831435   -89.055936       0.162530    -7.227656    
            
 425.000       0.157530   -23.428618       0.823612  -115.756258       0.128029   -31.430521       0.043359   133.893389    
               0.823408  -115.796686       0.155200   -35.346412       0.043210   133.188012       0.124531   -31.382599    
               0.127579   -31.349203       0.043196   133.266394       0.164545   -25.298115       0.823392  -116.312227    
               0.043107   133.727696       0.124037   -31.307163       0.823109  -116.327409       0.162043   -34.639698    
            
 450.000       0.124893   -42.860439       0.821024  -143.133159       0.132286   -55.203047       0.037273   109.507009    
               0.821231  -143.166578       0.123770   -63.980288       0.036961   109.191436       0.130059   -54.621475    
               0.132050   -55.106487       0.036796   109.160258       0.131656   -45.836788       0.820776  -143.652819    
               0.037193   109.674879       0.129692   -54.675888       0.821000  -143.696244       0.131301   -62.684600    
            
 475.000       0.071080   -51.891578       0.821334  -170.817015       0.113921   -79.613804       0.037126    93.740129    
               0.820936  -170.879423       0.067183   -96.278005       0.036852    93.685030       0.113375   -78.033887    
               0.113658   -79.589136       0.036758    93.887103       0.075976   -57.812493       0.821383  -171.379120    
               0.037029    93.594399       0.113018   -78.052018       0.820946  -171.391490       0.074600   -93.210397    
            
 500.000       0.042174     2.945682       0.818250   161.082251       0.076384  -103.027362       0.043761    74.731658    
               0.818365   161.080825       0.016309   130.886812       0.043664    74.965935       0.078038   -98.701577    
               0.076150  -103.053882       0.043533    75.024991       0.037054    -5.597290       0.818760   160.499229    
               0.043621    74.725718       0.077699   -98.693072       0.818810   160.469382       0.011646   154.610720    
            
 525.000       0.101301    22.491136       0.808607   132.937491       0.029729  -116.811653       0.054442    46.680922    
               0.808588   132.856146       0.084889    50.546330       0.054520    46.791082       0.036412  -102.182197    
               0.029604  -116.734153       0.054346    46.828722       0.095524    22.081429       0.809652   132.235818    
               0.054225    46.764254       0.036258  -102.108754       0.809264   132.242783       0.079840    49.120269    
            
 550.000       0.160163     6.627148       0.794199   105.060461       0.020238   -10.150330       0.061634    13.078150    
               0.794375   105.073869       0.144938    19.229697       0.061810    12.979642       0.028679   -43.180808    
               0.020161   -10.287279       0.061552    12.960049       0.156594     5.991687       0.794697   104.447477    
               0.061535    12.995754       0.028583   -43.426655       0.794899   104.464423       0.142788    18.618795    
            
 575.000       0.195256   -13.790685       0.780399    77.793789       0.053414   -14.670240       0.063572   -20.998176    
               0.779901    77.736557       0.180780    -7.863442       0.063470   -21.181755       0.053994   -37.353373    
               0.053210   -14.493895       0.063323   -21.117396       0.194236   -15.287613       0.781008    77.141391    
               0.063323   -21.084060       0.053790   -37.312079       0.780453    77.091228       0.182178    -7.962918    
            
 600.000       0.201620   -34.711298       0.771549    50.729219       0.072981   -33.385978       0.061144   -52.209423    
               0.771845    50.799683       0.187185   -33.428473       0.060962   -52.264966       0.069385   -53.042302    
               0.072758   -33.265117       0.060727   -52.276860       0.202621   -37.656953       0.772667    50.132567    
               0.060952   -52.130495       0.069150   -53.147447       0.772831    50.116374       0.192149   -32.931003    
            
 625.000       0.178531   -54.623181       0.769576    23.796922       0.075994   -52.775475       0.058119   -79.259267    
               0.769878    23.638089       0.163945   -57.075563       0.057694   -79.270078       0.069288   -72.237598    
               0.075830   -52.732490       0.057524   -79.175459       0.180107   -59.638459       0.771669    23.114778    
               0.057957   -79.358911       0.069015   -72.252068       0.771291    23.012787       0.172501   -55.864847    
            
 650.000       0.130963   -70.665599       0.771427    -3.717589       0.063307   -69.655716       0.057201  -102.925477    
               0.771591    -3.719891       0.116310   -77.779214       0.056756  -102.323826       0.054831   -90.708168    
               0.063185   -69.687786       0.056574  -102.326668       0.130424   -79.366229       0.773552    -4.390036    
               0.056998  -102.980970       0.054582   -90.811773       0.773470    -4.394715       0.128553   -75.427524    
            
 675.000       0.073550   -70.407261       0.772343   -31.491719       0.040017   -75.417077       0.060636  -125.806947    
               0.772852   -31.577316       0.053298   -84.347541       0.060648  -124.958558       0.030301  -100.215693    
               0.039882   -75.418526       0.060417  -124.889528       0.064989   -88.281646       0.774798   -32.252551    
               0.060520  -125.877805       0.030187  -100.301769       0.774808   -32.293772       0.071593   -82.541909    
            
 700.000       0.063879   -26.346428       0.769071   -59.621952       0.027477   -40.442436       0.067428  -151.919936    
               0.768745   -59.617699       0.041855    -7.769255       0.067926  -151.042645       0.016265   -46.669060    
               0.027427   -40.506167       0.067761  -151.027991       0.037681   -21.554592       0.771410   -60.385526    
               0.067186  -152.017146       0.016243   -46.659733       0.770984   -60.414752       0.046381   -39.548053    
            
 725.000       0.114684   -18.045506       0.759416   -87.674145       0.045342   -20.436229       0.073833   178.393253    
               0.760426   -87.792810       0.100583    -4.262369       0.074789   179.133264       0.035974   -25.266668    
               0.045239   -20.420806       0.074573   179.194695       0.092713    -7.502918       0.762823   -88.466422    
               0.073549   178.414073       0.035815   -25.264706       0.762787   -88.481242       0.085940   -20.516794    
            
 750.000       0.159475   -32.445886       0.747625  -115.505003       0.061202   -28.740850       0.076562   147.711338    
               0.747749  -115.469589       0.147693   -22.092148       0.078019   148.169899       0.050233   -40.544973    
               0.060981   -28.664067       0.077782   148.125482       0.137922   -24.032995       0.751579  -116.166942    
               0.076492   147.650736       0.050099   -40.649070       0.752098  -116.232827       0.125226   -32.677662    
            
 775.000       0.180586   -51.652581       0.736632  -142.932106       0.063990   -39.310579       0.077470   118.431365    
               0.736506  -142.938851       0.171356   -41.797840       0.079071   118.614817       0.049514   -60.674345    
               0.063741   -39.152712       0.078784   118.675040       0.158230   -43.903425       0.742593  -143.651134    
               0.077198   118.356729       0.049300   -60.663054       0.742260  -143.680446       0.144117   -50.426870    
            
 800.000       0.177260   -71.516415       0.727066  -170.232528       0.057461   -41.532305       0.078145    90.164583    
               0.727246  -170.287029       0.172608   -59.944006       0.079806    90.037435       0.032251   -77.502491    
               0.057381   -41.446528       0.079620    90.056599       0.154419   -63.530730       0.735388  -171.146052    
               0.077834    90.134559       0.032097   -77.541494       0.735009  -171.194041       0.141342   -67.790835    
            
 825.000       0.154562   -90.682904       0.719424   162.444360       0.056991   -30.719864       0.079267    62.308685    
               0.719436   162.491645       0.157739   -74.910773       0.080795    61.911875       0.010231   -23.731084    
               0.056777   -30.680032       0.080550    61.848574       0.132390   -81.569667       0.728259   161.344795    
               0.079064    62.357146       0.010171   -23.696607       0.728529   161.290658       0.123227   -81.514159    
            
 850.000       0.120023  -108.323826       0.712485   135.236268       0.073999   -23.445679       0.080471    34.511667    
               0.711937   135.271238       0.138224   -85.523943       0.081621    33.871512       0.040710    20.919638    
               0.073741   -23.374881       0.081368    33.866822       0.100732   -96.655386       0.721299   133.849942    
               0.080222    34.451586       0.040563    20.959394       0.720792   133.826729       0.103789   -88.681630    
            
 875.000       0.080186  -123.649269       0.706379   108.116962       0.099355   -28.941023       0.081453     6.595946    
               0.707630   108.075073       0.122093   -93.351435       0.082143     6.015276       0.076787     4.107100    
               0.098977   -28.866634       0.081917     6.147055       0.066203  -106.980153       0.714079   106.436411    
               0.081127     6.467279       0.076477     4.082949       0.714651   106.464398       0.093483   -91.839018    
            
 900.000       0.040759  -133.210838       0.704046    80.891219       0.121235   -41.831558       0.081018   -20.853685    
               0.703734    80.859117       0.109984  -101.275191       0.081833   -21.049381       0.104560   -16.459380    
               0.120940   -41.716723       0.081509   -21.177630       0.034906  -104.895628       0.709076    79.140976    
               0.080726   -20.662415       0.104133   -16.572876       0.708728    79.123807       0.090645   -98.261063    
            
 925.000       0.011285  -100.044884       0.701935    53.630254       0.132265   -57.747190       0.081374   -45.865610    
               0.702570    53.636685       0.096646  -112.078893       0.082456   -46.565686       0.119523   -37.311163    
               0.131802   -57.676133       0.081966   -46.387419       0.017475   -60.728180       0.704856    51.808280    
               0.081478   -46.118692       0.119024   -37.255406       0.705825    51.796419       0.084374  -112.614923    
            
 950.000       0.021918   -16.710959       0.701452    26.192932       0.127906   -74.200118       0.086058   -71.431138    
               0.702386    26.083807       0.076135  -126.396772       0.086416   -71.771694       0.118567   -57.313790    
               0.127727   -74.298139       0.086451   -71.792483       0.027772    -8.465514       0.703639    24.413509    
               0.085360   -71.537025       0.118132   -57.374736       0.703735    24.309371       0.067290  -135.308635    
            
 975.000       0.041037   -10.495425       0.700507    -1.644274       0.108109   -88.474310       0.090921   -98.438195    
               0.700743    -1.672564       0.045066  -144.047664       0.092285   -98.827908       0.100735   -74.331822    
