!
! FILE: D:\users\goganessyan\Molex Channels for Eric\15inch_FR408_stub.s4p
!
# MHz S MA R 50.00
!
! FREQ                  S11                         S12                         S13                         S14
!                       S21                         S22                         S23                         S24
!                       S31                         S32                         S33                         S34
!                       S41                         S42                         S43                         S44                         
!                       
!                  MAG       ANG               MAG       ANG               MAG       ANG               MAG       ANG               
  50.000       0.142537    16.676215       0.932474   -56.214546       0.105575    32.218324       0.016677   161.895846    
               0.933215   -56.900348       0.143938    21.403404       0.016739   162.293416       0.105487    33.079555    
               0.105319    32.361008       0.017016   163.329726       0.138678    16.141326       0.935437   -56.619521    
               0.017094   163.052974       0.105376    33.592495       0.936014   -56.865754       0.139582    20.431157    
            
  75.000       0.166637    -5.753581       0.921628   -84.166201       0.127329     5.605849       0.017487   113.637462    
               0.922590   -84.569908       0.166486    -3.903018       0.017445   113.335580       0.127322     6.963215    
               0.127164     5.572673       0.017484   113.072527       0.160014    -6.259519       0.923861   -84.326895    
               0.017445   111.892280       0.127292     7.163653       0.925348   -84.584919       0.160389    -4.469146    
            
 100.000       0.160799   -31.026563       0.917554  -111.686476       0.123762   -20.450301       0.013541    68.236081    
               0.918281  -112.028994       0.157843   -25.224918       0.013833    68.597949       0.124076   -18.250317    
               0.123693   -20.459907       0.013571    69.270091       0.152887   -30.901928       0.920912  -111.911780    
               0.013425    68.894280       0.123906   -18.040539       0.921036  -112.057319       0.150360   -25.894603    
            
 125.000       0.124888   -55.692192       0.918980  -139.492282       0.095167   -46.521665       0.005884    28.215921    
               0.918465  -139.687939       0.126922   -48.846403       0.006136    29.030907       0.095752   -42.623109    
               0.094939   -46.380557       0.006253    29.649728       0.116780   -55.103773       0.921501  -139.688719    
               0.005983    27.126805       0.095581   -42.442079       0.921387  -139.759002       0.117450   -49.791592    
            
 150.000       0.071057   -79.227822       0.918403  -167.643661       0.044336   -69.116399       0.005373   126.634587    
               0.918295  -167.795026       0.070217   -67.487176       0.005263   121.626646       0.046195   -59.814991    
               0.044302   -69.114339       0.005184   121.459993       0.061741   -76.468149       0.920898  -167.789396    
               0.005395   126.771874       0.046102   -59.721827       0.920740  -167.878958       0.059835   -68.826485    
            
 175.000       0.011656   -53.753716       0.912546   164.073867       0.020142    50.895029       0.015313    89.602260    
               0.912423   163.940576       0.022872   -35.940931       0.014926    86.446270       0.024448    33.323487    
               0.020113    51.009470       0.014893    86.928874       0.014832    -5.386666       0.914374   163.867105    
               0.015390    89.608971       0.024360    33.586075       0.914097   163.892337       0.016529    -5.854820    
            
 200.000       0.049550    23.763566       0.900899   135.956106       0.078260    39.946194       0.022095    45.662799    
               0.900881   135.867717       0.052238    20.474109       0.021358    42.778290       0.079704    34.360731    
               0.078011    40.066220       0.021410    43.168606       0.061985    21.233367       0.901752   135.824093    
               0.022115    45.400160       0.079591    34.702407       0.901814   135.739957       0.060501    31.246875    
            
 225.000       0.080166     3.266073       0.887619   108.315842       0.121660    15.544179       0.023673     4.109200    
               0.888130   108.167016       0.082017     4.096054       0.022462     1.991800       0.123165    12.301057    
               0.121803    15.741081       0.022454     1.675032       0.093617    -0.492979       0.886985   108.155237    
               0.023514     4.429391       0.123202    12.581397       0.887079   108.136206       0.091322    11.485489    
            
 250.000       0.083293   -21.949749       0.878040    80.959598       0.143314    -9.101104       0.020983   -26.959031    
               0.878604    80.832169       0.082616   -15.890184       0.019738   -28.783962       0.144829   -11.319317    
               0.144306    -9.240275       0.019740   -28.340004       0.096045   -26.348935       0.873993    80.924466    
               0.021327   -27.032781       0.145612   -11.417952       0.874362    80.872785       0.092268    -8.892139    
            
 275.000       0.058221   -48.459734       0.872785    53.455234       0.142146   -33.834639       0.018577   -45.379768    
               0.872801    53.325082       0.059568   -34.937488       0.016996   -44.577129       0.143689   -35.539802    
               0.141611   -34.009552       0.017002   -44.692563       0.070393   -52.961601       0.875467    53.775885    
               0.018371   -45.656701       0.143073   -35.712890       0.875220    53.775469       0.068958   -27.110174    
            
 300.000       0.011727   -85.140567       0.870200    25.867015       0.113997   -58.248405       0.021944   -51.860040    
               0.870151    25.789698       0.015471   -18.221441       0.021364   -49.390600       0.115435   -59.528886    
               0.113780   -58.119262       0.021238   -49.212480       0.020554   -91.867665       0.872737    25.939543    
               0.022019   -51.521116       0.115169   -59.387088       0.872330    25.988974       0.024186   -15.001580    
            
 325.000       0.052328    82.434860       0.865196    -2.086987       0.065293   -76.691544       0.032488   -76.433191    
               0.865500    -2.159833       0.056004    69.034039       0.032119   -75.727860       0.066964   -77.479967    
               0.065188   -76.624027       0.032098   -75.552592       0.048548    84.266391       0.866750    -1.962254    
               0.032451   -76.557818       0.066909   -77.321464       0.867098    -2.040458       0.056653    64.543421    
            
 350.000       0.115229    52.730699       0.854685   -30.009525       0.022122   -35.661856       0.042178  -112.306560    
               0.854597   -30.092181       0.117860    51.386992       0.041777  -112.378681       0.023319   -39.220777    
               0.022048   -35.709738       0.041760  -112.345308       0.116464    52.019389       0.855214   -29.900669    
               0.042093  -112.323304       0.023322   -39.248683       0.855240   -29.982498       0.122507    51.216453    
            
 375.000       0.159890    25.204306       0.840027   -57.617588       0.060152     9.873777       0.046991  -151.393127    
               0.840489   -57.647085       0.162897    28.231222       0.046335  -152.165803       0.060481     7.608729    
               0.060088    10.006633       0.046271  -152.135820       0.167791    23.328613       0.839642   -57.506718    
               0.046886  -151.262572       0.060381     7.678737       0.839911   -57.542497       0.173376    29.416713    
            
 400.000       0.173397    -1.961949       0.828848   -84.767322       0.102875    -4.977480       0.045823   171.087559    
               0.829419   -84.865900       0.174934     5.175872       0.044888   169.540818       0.103998    -6.904891    
               0.102655    -4.902805       0.044704   169.689660       0.189356    -4.682834       0.827001   -84.609004    
               0.045926   171.144671       0.103875    -6.889121       0.827204   -84.599418       0.193758     7.396400    
            
 425.000       0.150560   -28.150643       0.823934  -111.916214       0.130523   -25.593407       0.039814   138.307303    
               0.823589  -111.958549       0.153602   -16.104140       0.037888   135.947733       0.132442   -27.866810    
               0.130320   -25.410732       0.037959   136.180279       0.177668   -32.426155       0.820643  -111.526563    
               0.039666   138.166953       0.132222   -27.775462       0.820388  -111.529490       0.182932   -13.168726    
            
 450.000       0.093266   -54.076642       0.822944  -139.390421       0.138500   -48.206872       0.032468   117.817668    
               0.822951  -139.409735       0.099306   -31.851911       0.029592   117.083205       0.140472   -50.851764    
               0.138500   -48.057814       0.029506   116.898147       0.133074   -61.346988       0.819977  -138.655645    
               0.032475   118.036947       0.140405   -50.848173       0.820199  -138.672798       0.140692   -30.110781    
            
 475.000       0.006205   -65.964198       0.820669  -167.339626       0.122987   -71.017740       0.034193   108.054775    
               0.820933  -167.395208       0.040332     4.200952       0.031561   110.730860       0.125045   -74.410523    
               0.122980   -71.003948       0.031504   110.945799       0.058511   -96.751674       0.821277  -166.313821    
               0.034182   107.921701       0.124925   -74.411334       0.821597  -166.352771       0.078492   -29.622508    
            
 500.000       0.100171    70.237084       0.809902   164.436662       0.086919   -89.756881       0.044785    88.510008    
               0.809637   164.368947       0.109296    53.127830       0.043283    91.774829       0.088597   -95.485592    
               0.086776   -89.732630       0.043201    91.845431       0.042772    89.138882       0.817626   165.545276    
               0.044662    88.523375       0.088422   -95.424600       0.817226   165.511247       0.074505    25.011061    
            
 525.000       0.203958    42.682606       0.789759   136.274260       0.047512   -88.275869       0.057824    57.208984    
               0.789930   136.249375       0.211111    37.257302       0.057146    59.324341       0.044423  -100.774196    
               0.047394   -88.257832       0.057088    59.283392       0.141451    47.031530       0.802865   137.294922    
               0.057795    57.223852       0.044298  -100.637224       0.803132   137.328031       0.159112    30.469638    
            
 550.000       0.284640    15.943064       0.763376   108.971090       0.042791   -52.345893       0.066037    20.758414    
               0.764209   108.916915       0.291529    15.519867       0.065414    21.898945       0.031078   -50.968354    
               0.042729   -52.311580       0.065259    21.891223       0.224178    16.905342       0.781128   109.734783    
               0.066028    20.675462       0.031041   -51.065620       0.781733   109.731983       0.238573    13.697450    
            
 575.000       0.333557    -9.674092       0.740900    82.618615       0.063453   -46.930399       0.067771   -15.835962    
               0.739757    82.569750       0.341440    -6.430860       0.066752   -15.309961       0.055221   -37.860344    
               0.063292   -46.814355       0.066709   -15.214851       0.277839   -10.740732       0.760245    82.915316    
               0.067652   -15.858489       0.055170   -37.834163       0.759450    82.880410       0.291993    -6.175602    
            
 600.000       0.349091   -34.364964       0.726604    56.842320       0.078108   -58.138864       0.064262   -49.959776    
               0.727606    56.895655       0.357503   -27.666667       0.062794   -49.745326       0.074042   -48.894440    
               0.077971   -57.971459       0.062730   -49.678284       0.298689   -37.206872       0.746175    56.707348    
               0.064159   -49.878325       0.073923   -48.936030       0.746604    56.722991       0.313581   -26.229598    
            
 625.000       0.330263   -58.568963       0.726550    31.263077       0.082600   -73.717232       0.058309   -80.614199    
               0.726606    31.138812       0.340079   -48.042215       0.056337   -80.610266       0.081506   -64.336479    
               0.082510   -73.658747       0.056223   -80.541515       0.285409   -63.164965       0.743307    30.712670    
               0.058235   -80.647652       0.081278   -64.273921       0.743109    30.596040       0.303314   -45.376229    
            
 650.000       0.278915   -82.631121       0.735961     4.967318       0.076577   -92.244733       0.051359  -106.594444    
               0.735701     5.036381       0.291939   -67.593296       0.048802  -105.899679       0.078015   -80.892695    
               0.076489   -92.210077       0.048752  -105.878890       0.240199   -89.518034       0.748295     4.231591    
               0.051249  -106.578263       0.077813   -80.934944       0.748273     4.275138       0.264427   -63.121031    
            
 675.000       0.197863  -106.447298       0.749972   -21.959958       0.058604  -113.643946       0.047600  -125.606872    
               0.750707   -21.988664       0.216412   -84.537035       0.045227  -123.510665       0.063336   -97.052170    
               0.058519  -113.619373       0.045148  -123.373551       0.167353  -117.176045       0.758229   -22.839951    
               0.047584  -125.621279       0.063192   -97.042601       0.758608   -22.849321       0.202165   -77.194455    
            
 700.000       0.096875  -125.645553       0.760999   -49.904496       0.029431  -136.184754       0.051225  -144.220249    
               0.761294   -49.914277       0.129184   -91.096880       0.049628  -141.118089       0.040535  -105.633055    
               0.029360  -136.155530       0.049555  -141.120284       0.076120  -147.844120       0.765036   -50.671194    
               0.051157  -144.140536       0.040498  -105.601603       0.765607   -50.708515       0.134257   -79.778521    
            
 725.000       0.027271   -48.467393       0.762610   -78.253858       0.004660   -21.779311       0.058702  -168.349216    
               0.763385   -78.350066       0.081642   -60.209273       0.058113  -165.709287       0.025152   -81.648018    
               0.004684   -21.714339       0.058015  -165.552885       0.021883    26.975266       0.764942   -78.830473    
               0.058667  -168.422584       0.025084   -81.495865       0.765193   -78.930975       0.104120   -57.780442    
            
 750.000       0.108027   -27.026129       0.754056  -106.543634       0.030015   -17.397260       0.065175   162.318978    
               0.754381  -106.521840       0.127450   -36.981093       0.065070   164.374336       0.034463   -59.864617    
               0.029954   -17.225775       0.064950   164.407618       0.106057   -16.000544       0.755658  -106.975378    
               0.065137   162.373986       0.034441   -59.964367       0.756516  -107.007521       0.140328   -42.458004    
            
 775.000       0.169505   -48.857735       0.740620  -134.226677       0.041889   -36.897213       0.067890   132.096852    
               0.740786  -134.292841       0.181994   -45.161873       0.067751   133.606064       0.042686   -70.355181    
               0.041799   -36.834242       0.067622   133.720355       0.165586   -45.216472       0.742367  -134.614525    
               0.067861   132.083636       0.042608   -70.325658       0.742478  -134.643616       0.187395   -48.717454    
            
 800.000       0.198898   -73.377335       0.728140  -161.493490       0.039757   -50.291799       0.067861   103.077533    
               0.728151  -161.548202       0.213868   -59.913469       0.067468   104.369794       0.037823   -88.236084    
               0.039779   -50.188703       0.067387   104.395617       0.196580   -73.175078       0.729850  -161.887548    
               0.067785   103.060867       0.037711   -88.197366       0.729766  -161.930375       0.218058   -62.050835    
            
 825.000       0.199478   -99.016127       0.718920   171.488133       0.030885   -47.271144       0.066987    76.227492    
               0.719164   171.502649       0.221949   -75.589068       0.066432    77.558806       0.020732  -104.355414    
               0.030843   -47.330130       0.066375    77.555058       0.202043  -101.169112       0.719626   171.113900    
               0.066980    76.222249       0.020701  -104.268989       0.720217   171.073044       0.229452   -77.434847    
            
 850.000       0.176975  -125.491290       0.713383   144.597984       0.031711   -21.686144       0.067171    51.132031    
               0.712720   144.650201       0.211893   -90.634814       0.066623    52.560815       0.006436     6.451373    
               0.031669   -21.544073       0.066558    52.537571       0.188347  -129.694447       0.713138   144.184700    
               0.067117    51.149653       0.006410     6.422844       0.712552   144.205636       0.225327   -93.169790    
            
 875.000       0.140433  -153.850106       0.709743   117.632105       0.050034   -12.140678       0.069464    26.570244    
               0.711241   117.663086       0.189556  -104.452142       0.069214    28.008539       0.033817    14.988745    
               0.049924   -12.120360       0.069047    28.045975       0.162456  -159.958333       0.708377   117.312614    
               0.069496    26.532630       0.033751    15.018837       0.710210   117.312334       0.209135  -109.146379    
            
 900.000       0.098317   173.857078       0.709913    90.478645       0.072133   -21.137720       0.073341     1.078869    
               0.709311    90.424371       0.160702  -117.196505       0.073310     2.455395       0.059492    -3.720864    
               0.072084   -20.994182       0.073288     2.445845       0.132489   167.205043       0.708017    90.246579    
               0.073153     1.145029       0.059363    -3.816235       0.707354    90.187013       0.184213  -125.669008    
            
 925.000       0.062654   132.997909       0.707661    63.141593       0.088028   -36.564946       0.077978   -24.793236    
               0.708812    63.216096       0.129504  -129.392662       0.078485   -23.860406       0.077123   -24.031436    
               0.087818   -36.504784       0.078089   -23.863554       0.108150   131.647255       0.704829    62.963971    
               0.078205   -24.847810       0.076946   -23.978500       0.706886    63.095693       0.152770  -144.064471    
            
 950.000       0.044906    80.602997       0.706423    35.843632       0.091713   -53.610267       0.084739   -52.108147    
               0.708172    35.607860       0.095471  -141.889199       0.084638   -51.527619       0.082545   -43.256109    
               0.091699   -53.627968       0.084570   -51.321363       0.093008    95.761663       0.705430    35.806995    
               0.084458   -52.328924       0.082415   -43.329883       0.706277    35.614227       0.115489  -166.109448    
            
 975.000       0.043340    35.538405       0.705093     8.034393       0.081341   -68.763948       0.089607   -81.250845    
               0.704965     8.007135       0.057371  -153.271223       0.089858   -80.774369       0.074510   -59.162499    
